  vcan0  0A5   [8]  35 0F 09 04 E7 09 7E FD
  vcan0  381   [4]  99 0C 3A 2C
  vcan0  0A5   [8]  9F 75 EE 01 CC CD 40 88
  vcan0  0AC   [8]  A0 0E 96 F9 73 D7 43 64
  vcan0  0A9   [8]  9E DD BD C0 D0 B1 B7 26
  vcan0  387   [5]  29 E5 AE FA DE
  vcan0  0AC   [8]  30 92 37 24 B5 BE D1 76
  vcan0  0AB   [8]  87 B1 BB 26 D4 EB 86 B4
  vcan0  0A2   [8]  5B BF 22 52 8B 00 69 38
  vcan0  0AC   [8]  3D 94 5D 94 53 E1 A7 43
  vcan0  0A0   [8]  E7 BF B9 21 54 0A 48 24
  vcan0  0A0   [8]  46 44 44 03 C5 07 B0 23
  vcan0  0AC   [8]  C5 1B F0 D1 05 A3 52 03
  vcan0  0AB   [8]  18 76 DB 7A 65 9F C4 CF
  vcan0  500   [6]  9C 47 C9 5A 4C E0
  vcan0  500   [6]  AC 45 EF 44 58 8E
  vcan0  387   [5]  13 A4 3C FE F9
  vcan0  0AB   [8]  38 6D 4F 6B 9F 88 31 EE
  vcan0  0A9   [8]  0A 20 89 19 1C B9 4E 60
  vcan0  0A0   [8]  40 C1 28 38 12 AE E9 72
  vcan0  0A0   [8]  BE 52 3A AA 4C 1E 6C 9D
  vcan0  500   [6]  F6 3F 50 66 3A 47
  vcan0  0A9   [8]  4C 52 21 26 1E F6 89 32
  vcan0  387   [5]  35 B6 D2 01 C6
  vcan0  0A2   [8]  E9 CB 05 3F 0F 60 AD 7A
  vcan0  0AB   [8]  7C 40 26 B0 49 C2 0C A5
  vcan0  0AC   [8]  AD 57 80 28 90 DD 92 0E
  vcan0  500   [6]  BC 1A 69 79 3E E2
  vcan0  0AB   [8]  FD 30 66 FB 83 00 2A F4
  vcan0  387   [5]  38 7E 9E F8 09
  vcan0  500   [6]  5A 2D 17 95 55 86
  vcan0  0A0   [8]  20 6B E5 D6 4D 80 2B B3
  vcan0  387   [5]  3B AA C6 F9 F0
  vcan0  0A9   [8]  F3 17 B8 0D 90 A6 F7 53
  vcan0  0A2   [8]  26 BC 4A 5E 4E B5 05 4A
  vcan0  0AB   [8]  98 9A 1B 80 6C 6B C4 39
  vcan0  0A5   [8]  E0 2C B0 02 36 43 84 2E
  vcan0  500   [6]  83 31 A5 60 E5 B2
  vcan0  0AB   [8]  17 42 6F CC 71 C0 D9 64
  vcan0  387   [5]  3A CB 9D FB C7
  vcan0  0AB   [8]  34 BA 6D 14 D7 B2 CE 90
  vcan0  500   [6]  4B 1C FF E9 5A D3
  vcan0  500   [6]  B4 B9 13 B8 87 47
  vcan0  0AB   [8]  F7 FB 95 89 D3 94 9F B5
  vcan0  500   [6]  B9 97 6A CB 04 FD
  vcan0  0AC   [8]  88 E5 A5 47 E8 FC B5 8C
  vcan0  0A5   [8]  7F 02 3E F9 B7 E2 D0 94
  vcan0  381   [4]  7F 1E 56 20
  vcan0  0A5   [8]  7D 2B ED 09 A0 77 13 26
  vcan0  387   [5]  26 18 FA FE EE
  vcan0  0A0   [8]  D5 BC E1 A3 B5 E9 93 53
  vcan0  381   [4]  94 03 AB 90
  vcan0  500   [6]  76 9E E1 DB A3 4F
  vcan0  0A0   [8]  F5 AC 6C 19 96 3B F3 C5
  vcan0  381   [4]  BB 5B 22 CC
  vcan0  0AB   [8]  1F 7D 22 E8 D8 62 11 56
  vcan0  0AB   [8]  32 8F BC 4E B0 B9 2B 81
  vcan0  0A5   [8]  45 69 C8 FA 01 6C F7 38
  vcan0  381   [4]  E3 03 D3 9A
  vcan0  0AB   [8]  DE D0 88 12 BF 4B D0 B0
  vcan0  0A9   [8]  B6 98 CE D1 AA 81 46 72
  vcan0  500   [6]  8B 3F B0 D0 F8 16
  vcan0  0AB   [8]  F3 1A F6 0B 04 FC 77 A4
  vcan0  0A0   [8]  B8 BE E4 6A 08 65 37 44
  vcan0  381   [4]  DC 4C 46 90
  vcan0  381   [4]  B9 13 D0 B6
  vcan0  0A9   [8]  61 3B 2B DE 3B 5D 64 BA
  vcan0  0AC   [8]  8A 10 16 E7 AB 00 B4 33
  vcan0  0A0   [8]  54 1B F2 79 77 65 AF 73
  vcan0  381   [4]  AC 58 62 47
  vcan0  0AC   [8]  17 95 64 E1 30 21 01 94
  vcan0  0A2   [8]  61 EC 0E AC 74 7C A1 BC
  vcan0  0AC   [8]  8D A7 89 D0 15 CC 35 69
  vcan0  381   [4]  33 3B 58 BB
  vcan0  381   [4]  7B 63 7B 62
  vcan0  387   [5]  24 A9 5D FD 17
  vcan0  381   [4]  6E 1A 98 2F
  vcan0  0A5   [8]  99 20 AD FD 6B CC 7D 1D
  vcan0  0A2   [8]  C0 0B 3A D6 3E 24 07 5D
  vcan0  381   [4]  71 32 59 38
  vcan0  0AC   [8]  6B 1F 0B EC D8 19 5E 00
  vcan0  0A5   [8]  F2 1A C4 0A 20 37 D9 81
  vcan0  0AB   [8]  9D 53 1D 09 34 C9 EC A0
  vcan0  0AC   [8]  90 1B F6 B2 70 D7 5E 68
  vcan0  0A0   [8]  57 37 B5 69 26 45 C4 82
  vcan0  0A5   [8]  09 00 A9 FA D2 27 B7 03
  vcan0  387   [5]  2E BF AB FA 2A
  vcan0  0AC   [8]  22 3B 0D 68 B0 FB 28 9E
  vcan0  500   [6]  7A 39 17 BE 18 3C
  vcan0  0A2   [8]  A0 F7 D5 70 CF 33 DE C9
  vcan0  381   [4]  D2 5D FA 1E
  vcan0  381   [4]  16 1C 3E 6C
  vcan0  0A0   [8]  8D 4E F4 E5 D9 84 AA 23
  vcan0  387   [5]  2E 3E 44 FB 42
  vcan0  0A5   [8]  A1 05 4E 0A D0 21 26 3D
  vcan0  381   [4]  7B 11 A4 AF
  vcan0  0A2   [8]  D1 A6 AC B6 8E AB 98 6C
  vcan0  381   [4]  39 3E EE E8
  vcan0  0A9   [8]  29 4D 23 61 35 BB D4 EB
  vcan0  0AC   [8]  64 F2 11 71 13 FB 08 90
  vcan0  387   [5]  20 04 AA 00 21
  vcan0  0A2   [8]  60 63 37 70 06 A5 31 39
  vcan0  500   [6]  86 B7 84 C2 41 6B
  vcan0  0A0   [8]  03 03 DA CC 0E 6A A3 EC
  vcan0  0A2   [8]  18 18 8D 00 1C FE 18 2F
  vcan0  0A0   [8]  B6 9B AA 71 DA 12 EA 2E
  vcan0  0AB   [8]  F8 9F 06 8C 9C 1B 91 27
  vcan0  0A9   [8]  79 AB A4 17 D2 50 48 C8
  vcan0  0A2   [8]  90 05 56 3E 3A 6A AF FE
  vcan0  0A2   [8]  C5 33 D2 8F AE 65 21 30
  vcan0  0A2   [8]  BD 5B F4 32 74 76 3F 5A
  vcan0  387   [5]  2D 9B A9 04 8D
  vcan0  0A9   [8]  38 E0 B0 BD D3 23 ED F6
  vcan0  0A0   [8]  D6 2C C6 6A C1 02 EA 4A
  vcan0  381   [4]  A6 45 F8 94
  vcan0  0A5   [8]  52 4C B6 01 86 B4 9A 95
  vcan0  0A0   [8]  CC A3 9E 21 BD BB 45 45
  vcan0  0AC   [8]  48 85 C2 73 38 CB A4 A7
  vcan0  0A9   [8]  5C ED 47 69 8D 94 A3 04
  vcan0  0AB   [8]  4E 09 FB 71 A2 E1 0C E3
  vcan0  387   [5]  3C 07 CE F9 37
  vcan0  381   [4]  22 16 EF 7D
  vcan0  0A9   [8]  45 CC 48 FA BD 6B 64 D6
  vcan0  381   [4]  4A 23 A0 86
  vcan0  0A9   [8]  0B C5 25 AB F6 5D 1E 52
  vcan0  0A5   [8]  ED 2A 1E 04 14 62 DD 07
  vcan0  0A5   [8]  A8 50 B5 08 CB 84 1A 96
  vcan0  500   [6]  C1 18 16 06 96 38
  vcan0  0A2   [8]  BF 15 B2 42 1E 55 91 27
  vcan0  381   [4]  F4 09 1B 87
  vcan0  387   [5]  2E A4 88 06 62
  vcan0  0A0   [8]  DE 02 40 93 CB A0 09 A6
  vcan0  0AC   [8]  1F AA 3C 4A F5 6E 41 5D
  vcan0  500   [6]  24 9D AC 5A FF 59
  vcan0  387   [5]  1D A2 52 00 F3
  vcan0  0A0   [8]  30 20 57 3C F6 E9 70 64
  vcan0  0AC   [8]  5D D2 C4 0C B0 9E C1 53
  vcan0  381   [4]  1C 06 99 C0
  vcan0  0A2   [8]  6C 8F 83 99 AE FF 66 7E
  vcan0  0AB   [8]  7B 1D 66 C9 8D 77 41 08
  vcan0  0A9   [8]  E8 93 74 EB 9C 33 B6 17
  vcan0  0AC   [8]  84 DD 30 E0 DD 71 FD 56
  vcan0  387   [5]  25 77 C1 02 ED
  vcan0  0AB   [8]  17 0C E5 C7 3E 57 6E 48
  vcan0  500   [6]  2C 34 D4 C2 F8 35
  vcan0  0AC   [8]  10 38 46 86 DD 47 9B A6
  vcan0  0A5   [8]  0C 3E 5D F5 D8 E7 79 64
  vcan0  0A9   [8]  5F 97 B8 25 1D DC 0E 90
  vcan0  0AC   [8]  54 78 A2 CA A5 31 DA 24
  vcan0  0A2   [8]  76 C5 6A F0 5F 9C 6E 01
  vcan0  387   [5]  0A C2 19 06 4D
  vcan0  387   [5]  2E 7D A0 F9 15
  vcan0  0A9   [8]  D8 63 DE 89 6B 20 1A 0F
  vcan0  0AB   [8]  43 DB 0C AA F2 65 4F CA
  vcan0  0A2   [8]  2C CC 07 EF DA 52 82 F2
  vcan0  0A5   [8]  35 77 E2 FC 6E EA C4 3C
  vcan0  0AC   [8]  3D 02 AA 61 20 43 46 83
  vcan0  0A2   [8]  CC F5 4C 40 E7 05 C4 43
  vcan0  387   [5]  29 96 DA 04 EA
  vcan0  381   [4]  94 5A F1 68
  vcan0  0A9   [8]  A0 B1 A5 E3 CF B1 F2 77
  vcan0  0A5   [8]  0E 04 6A 09 54 05 C9 3C
  vcan0  500   [6]  09 57 7A B5 1A 32
  vcan0  0A0   [8]  86 79 08 5F 15 2D 41 31
  vcan0  0AB   [8]  8B 35 F4 C6 A3 A6 B0 98
  vcan0  0AB   [8]  44 D7 C1 7C 68 AC 49 B2
  vcan0  0A5   [8]  F9 78 DF F4 F1 4A 0B 79
  vcan0  0A9   [8]  D1 8C A8 2D 62 05 6D 1D
  vcan0  0AB   [8]  2F 0A 7F 3E 00 16 4B 38
  vcan0  387   [5]  09 CF A6 06 84
  vcan0  0A2   [8]  A8 6C 91 9D 3D 63 99 92
  vcan0  500   [6]  16 73 B7 AE 99 9F
  vcan0  387   [5]  17 30 40 FA 62
  vcan0  387   [5]  29 46 25 FC 49
  vcan0  0A5   [8]  56 30 C3 07 BD BF C7 BB
  vcan0  387   [5]  39 78 E9 FC 5E
  vcan0  0A9   [8]  6C FA A3 CF 0C 83 D4 C6
  vcan0  500   [6]  DD 0E E0 98 8B 89
  vcan0  0AC   [8]  7C 47 3F 83 CB CD BF BC
  vcan0  0A9   [8]  5F 3C 11 C9 17 66 07 0A
  vcan0  0A0   [8]  0F 92 FF 49 0F C1 D4 3D
  vcan0  387   [5]  02 02 0A 04 97
  vcan0  0A2   [8]  A4 9A 01 96 8C A0 C7 51
  vcan0  387   [5]  18 F3 DE F8 97
  vcan0  381   [4]  3F 5F 1E 74
  vcan0  0A5   [8]  09 5E C4 08 2C 7C 84 65
  vcan0  0A2   [8]  C2 A6 19 19 28 CF 2A D0
  vcan0  0A9   [8]  F9 92 72 34 B2 81 16 C5
  vcan0  381   [4]  95 3D 24 A6
  vcan0  0A0   [8]  A3 8F FA 59 01 96 EE FB
  vcan0  0A9   [8]  04 69 FC 02 57 48 B4 88
  vcan0  0A5   [8]  25 51 22 F6 17 31 25 3A
  vcan0  500   [6]  C2 8F 51 DE D6 AF
  vcan0  0A5   [8]  B5 7E 90 05 28 4A D6 35
  vcan0  381   [4]  8B 3E BD 6C
  vcan0  0A9   [8]  3C 9A B0 98 34 5C 07 05
  vcan0  381   [4]  52 61 B8 44
  vcan0  0AB   [8]  0C 05 45 62 99 2B DA 7A
  vcan0  387   [5]  14 AB 0D 03 64
  vcan0  0A5   [8]  A8 23 AB 08 CF 16 49 68
  vcan0  0AC   [8]  15 29 4B A4 7D 98 AB 28
  vcan0  0A2   [8]  0A 31 BD F5 AF D3 B6 06
  vcan0  381   [4]  98 27 FF 57
  vcan0  387   [5]  2A AD 65 FD F3
  vcan0  0AB   [8]  D9 2E C6 52 83 2D B4 99
  vcan0  0AB   [8]  77 8F E9 21 6F 5A 21 78
  vcan0  0A9   [8]  EE 63 78 F3 AA 0C 2B CF
  vcan0  500   [6]  1E C2 4C 41 94 BE
  vcan0  0AC   [8]  99 F1 9F 2E 28 31 7D 4C
  vcan0  0AC   [8]  54 3C 63 12 30 E3 2F 80
  vcan0  0A9   [8]  86 87 6B 54 DA 0D 91 98
  vcan0  500   [6]  A7 EC 82 72 BD 00
  vcan0  0A2   [8]  49 89 2D A7 96 69 91 E4
  vcan0  387   [5]  15 B5 BC 06 19
  vcan0  0A5   [8]  48 06 39 FF 2E F2 1B ED
  vcan0  0AC   [8]  F2 96 0F 14 70 67 BC 93
  vcan0  500   [6]  29 44 13 7A DC B3
  vcan0  500   [6]  73 CB 81 50 5C 18
  vcan0  0AB   [8]  3E B1 B3 B5 CF 50 91 57
  vcan0  0A5   [8]  C2 45 8D F5 44 75 1D 70
  vcan0  0A9   [8]  78 CE 8C 04 B3 71 DA BA
  vcan0  0A0   [8]  85 12 75 71 B3 E2 97 87
  vcan0  0AB   [8]  09 3B 8B 89 E4 47 9E 93
  vcan0  387   [5]  30 F0 A2 FB 0E
  vcan0  0AB   [8]  32 2A 3F E4 EA 09 F7 E8
  vcan0  0AB   [8]  5B 25 15 44 7A A4 1C 94
  vcan0  0A5   [8]  FC 27 07 F7 2D F8 BF F4
  vcan0  0A5   [8]  EA 3F CA FB B3 FB 49 72
  vcan0  0A0   [8]  26 5E 35 74 95 DB DF 7F
  vcan0  0A5   [8]  95 77 90 04 05 95 53 1D
  vcan0  0A2   [8]  53 E6 A0 9F 0F D5 2F 7D
  vcan0  0AB   [8]  11 2A D1 B0 07 84 90 B7
  vcan0  0A0   [8]  30 D1 17 3C DC FC 0E BA
  vcan0  381   [4]  C7 36 E8 37
  vcan0  381   [4]  64 53 AB C6
  vcan0  0AB   [8]  4D 48 DF 99 BB 82 00 D5
  vcan0  0AB   [8]  38 6E 21 E2 F5 D1 31 2A
  vcan0  381   [4]  4C 2B 39 8A
  vcan0  0A0   [8]  EB DD 39 42 DA CE 52 91
  vcan0  0AB   [8]  E7 8E 43 0B 47 B4 D5 06
  vcan0  0A2   [8]  FB 9D 57 B9 D0 83 DB E8
  vcan0  381   [4]  D5 5E C4 B3
  vcan0  0AC   [8]  60 3F 03 FC 73 D8 E0 70
  vcan0  0AB   [8]  8D 27 7D F7 63 2C 35 46
  vcan0  0AB   [8]  BC 1C 0F 9F 4F 05 34 70
  vcan0  500   [6]  26 2C 3A 54 7E 5B
  vcan0  0A2   [8]  F7 95 33 1E E6 35 6C BD
  vcan0  0A2   [8]  18 D7 71 55 EA 92 05 4F
  vcan0  0AB   [8]  20 3A E7 E2 F4 2F D7 78
  vcan0  0A5   [8]  E4 61 8A FC B0 DD EB CC
  vcan0  0AC   [8]  CC 55 E7 33 90 F0 C1 94
  vcan0  0AB   [8]  09 1F 84 3C F6 9F D2 06
  vcan0  0A2   [8]  AA 71 B8 18 CA 33 63 49
  vcan0  0A0   [8]  B8 C1 36 FF CE 8D 6E 09
  vcan0  500   [6]  55 C6 2F 0A 4C A1
  vcan0  0AC   [8]  A3 C6 F5 18 CB 07 4D 19
  vcan0  0AB   [8]  AE EE 90 96 A9 AF F6 9A
  vcan0  500   [6]  B5 20 27 FE 88 75
  vcan0  500   [6]  8D 3A E8 72 5E E7
  vcan0  0A9   [8]  29 88 EF 03 2A 8D BB 0F
  vcan0  500   [6]  E2 4A 8D 8D 45 43
  vcan0  0A5   [8]  CB 0D 7C FD 10 D7 8B FD
  vcan0  0A0   [8]  AE DD 06 DC 61 A3 07 39
  vcan0  0A0   [8]  EF FD C9 E2 D6 82 D8 FE
  vcan0  0A9   [8]  63 A6 4A 5C 48 59 CF 96
  vcan0  500   [6]  A3 DB FC C7 3D 7D
  vcan0  0A2   [8]  83 91 44 38 A0 9B 22 47
  vcan0  0A9   [8]  72 13 5A C7 75 90 49 E5
  vcan0  381   [4]  0D 46 67 A9
  vcan0  500   [6]  3F 02 0A E3 4D CE
  vcan0  500   [6]  A4 16 1C 52 81 FF
  vcan0  0A9   [8]  EE 03 D9 3C 5B 4E EC 26
  vcan0  0AC   [8]  6B D5 97 C1 73 4B E4 54
  vcan0  0AB   [8]  18 38 DA AC 84 B7 59 78
  vcan0  0A0   [8]  B1 72 D2 A2 D0 F6 87 76
  vcan0  0A2   [8]  B6 78 6A 16 0C 37 EA 25
  vcan0  500   [6]  58 D0 E8 68 17 54
  vcan0  0A9   [8]  66 9B 53 98 AC A1 76 4B
  vcan0  0AC   [8]  6C 43 39 66 D0 0C 5B 09
  vcan0  0A2   [8]  D4 B3 D0 91 09 CD 6B DB
  vcan0  500   [6]  B4 05 EA 22 84 4A
  vcan0  0AB   [8]  D9 95 89 16 D4 83 6C 34
  vcan0  0AB   [8]  88 2B 40 69 01 18 63 09
  vcan0  500   [6]  94 98 F2 0B 63 C5
  vcan0  0A5   [8]  DB 3F 65 03 A5 25 DF 82
  vcan0  0AC   [8]  55 32 44 47 3B 05 BD 8B
  vcan0  381   [4]  EF 03 56 3E
  vcan0  387   [5]  10 C3 82 FB A4
  vcan0  0A0   [8]  0F C7 75 C6 7D 0F A7 53
  vcan0  387   [5]  05 50 AC 03 15
  vcan0  0A5   [8]  65 69 34 FC BD D4 F5 AD
  vcan0  0AC   [8]  6B 18 00 B0 65 3D AE F7
  vcan0  0A2   [8]  79 CF 2C 24 A5 01 AD 54
  vcan0  500   [6]  2F ED 50 2A CB 22
  vcan0  0AC   [8]  8C 10 D2 2A 8D 57 E3 E4
  vcan0  0A0   [8]  A3 9B 61 95 E3 DC 79 97
  vcan0  0AC   [8]  EB 08 6C 1C AD AF 42 C7
  vcan0  0A5   [8]  A3 00 5E 00 28 C7 77 09
  vcan0  381   [4]  1C 02 AD DD
  vcan0  0A0   [8]  34 7F 8C 9C CC E5 9F 49
  vcan0  500   [6]  7C E9 19 51 B8 F9
  vcan0  381   [4]  16 3F 23 3A
  vcan0  381   [4]  92 23 61 89
  vcan0  500   [6]  E9 97 F1 2E 41 C8
  vcan0  381   [4]  C2 26 11 87
  vcan0  500   [6]  FB AF 35 47 A7 6B
  vcan0  0A0   [8]  24 F7 5F 01 D1 7F 15 46
  vcan0  0A2   [8]  DC 19 EC 2B 7B 80 76 5D
  vcan0  0A9   [8]  15 83 9F 45 B2 70 67 3C
  vcan0  0AB   [8]  C6 FF 09 33 97 A2 91 79
  vcan0  0AC   [8]  51 C7 BE D3 CB E5 31 56
  vcan0  0A2   [8]  42 13 E0 DC 54 55 5C 3A
  vcan0  0AC   [8]  22 5F 38 34 58 4D AD 43
  vcan0  0A9   [8]  48 28 4B A8 9C FA 22 01
  vcan0  0A5   [8]  FD 30 A8 F7 2E 46 46 CF
  vcan0  387   [5]  1C DD AC 03 6D
  vcan0  0AB   [8]  63 62 44 D4 37 4E 8C 30
  vcan0  0AC   [8]  4E 8A FD 96 98 EA 3A A6
  vcan0  0A0   [8]  62 DA F7 19 6F 74 EF 6C
  vcan0  0A0   [8]  38 E5 AD 8B 44 F7 E0 16
  vcan0  0A2   [8]  25 72 71 20 64 B2 E8 69
  vcan0  387   [5]  05 C5 A3 FF E2
  vcan0  0A0   [8]  46 83 E8 CC 3B 03 7A A2
  vcan0  0A0   [8]  73 40 B6 B8 6E 48 B1 17
  vcan0  381   [4]  E9 54 9B B1
  vcan0  381   [4]  CF 05 29 E0
  vcan0  0AB   [8]  87 A2 BD D0 37 2D E7 EF
  vcan0  0AB   [8]  6C C0 09 05 FC 93 CF 08
  vcan0  0A2   [8]  A8 28 EE D3 D2 56 E7 4C
  vcan0  387   [5]  00 FA 56 01 FC
  vcan0  500   [6]  31 51 EE C5 50 23
  vcan0  0A5   [8]  A2 6D 8A 06 5B 3F 7B 2B
  vcan0  0A5   [8]  65 4F 98 F4 E9 B5 FB C2
  vcan0  0A0   [8]  50 B3 39 47 62 E5 55 2E
  vcan0  0AC   [8]  8F 07 4D C3 48 83 18 3A
  vcan0  0A0   [8]  78 D0 42 33 91 4F 17 F0
  vcan0  500   [6]  E5 E9 41 94 57 2A
  vcan0  0A9   [8]  86 6F BE A2 A4 14 73 3A
  vcan0  0A2   [8]  0D 5E D5 A8 2A 2F 58 4B
  vcan0  0A2   [8]  D3 CC 70 D7 8A 74 83 D2
  vcan0  0AB   [8]  78 65 29 62 3D 3A AD 46
  vcan0  387   [5]  3A E1 63 03 BE
  vcan0  500   [6]  D2 06 04 8E 3C BC
  vcan0  0AC   [8]  A2 18 94 C7 55 B9 51 C0
  vcan0  0A5   [8]  2F 74 0F FA 25 19 36 A9
  vcan0  500   [6]  CF 50 C5 7A E0 BB
  vcan0  0AC   [8]  8A 42 37 11 4B 5E 81 E0
  vcan0  0A5   [8]  DC 0D E4 08 2C 8D 08 3B
  vcan0  387   [5]  15 75 49 06 4B
  vcan0  500   [6]  D8 E8 DB 91 71 DD
  vcan0  500   [6]  87 2D 8B 40 49 E4
  vcan0  381   [4]  F7 4D 77 10
  vcan0  0A0   [8]  49 97 48 07 67 5B E5 D7
  vcan0  0AC   [8]  C3 07 6E 8A 9D DD 74 A4
  vcan0  0A0   [8]  23 57 B5 98 BD D9 23 24
  vcan0  0A5   [8]  AD 06 95 09 F9 71 BF 7C
  vcan0  500   [6]  A1 44 11 DC 10 68
  vcan0  0AB   [8]  FE DD A2 02 BF 85 C3 47
  vcan0  0AC   [8]  E0 AE E9 1F 20 1F 13 4E
  vcan0  0AC   [8]  90 59 FB 39 C0 26 62 C5
  vcan0  381   [4]  08 0C 1A FE
  vcan0  0A5   [8]  A4 2E D6 09 B7 4D 61 BB
  vcan0  381   [4]  2D 24 BE 2C
  vcan0  0AB   [8]  51 E0 A9 C9 5D F6 C3 90
  vcan0  500   [6]  C0 84 71 E3 C5 98
  vcan0  387   [5]  18 A5 7B 00 6B
  vcan0  0A9   [8]  4E 9A 1D 81 12 C3 4C 33
  vcan0  0A0   [8]  5F EF 52 D9 5A AD 2E 4D
  vcan0  0AB   [8]  44 78 82 E6 09 3D D3 39
  vcan0  500   [6]  E2 05 FE C6 88 89
  vcan0  0A9   [8]  63 99 16 B1 14 C2 82 93
  vcan0  0A5   [8]  EA 38 BB 06 9A 33 C8 7E
  vcan0  381   [4]  5A 23 D1 9D
  vcan0  381   [4]  5F 56 27 48
  vcan0  387   [5]  22 04 4B FA F4
  vcan0  500   [6]  66 89 D3 DB FA CF
  vcan0  0AB   [8]  1C 88 FF 7B 6C 4B EC 0E
  vcan0  0A2   [8]  D6 E7 0A 2C A4 3A 45 DF
  vcan0  500   [6]  77 32 D6 78 E6 AF
  vcan0  381   [4]  B9 60 D0 FE
  vcan0  0AC   [8]  62 D9 9A 92 A0 D3 B8 4B
  vcan0  0AC   [8]  F7 B3 BB 35 A0 56 09 00
  vcan0  387   [5]  28 68 8A F9 41
  vcan0  0A2   [8]  C5 EA 8F C2 B9 1D 6C B3
  vcan0  387   [5]  05 06 07 06 F0
  vcan0  0A0   [8]  ED 4D 07 63 A1 7D A5 0D
  vcan0  500   [6]  B0 18 E0 0D 9B F2
  vcan0  0A2   [8]  BA 43 98 4E AC 2F C5 F6
  vcan0  387   [5]  1F BB 86 06 AB
  vcan0  0A0   [8]  57 24 A2 BF D1 8C 74 DE
  vcan0  387   [5]  14 2F 4D FB 10
  vcan0  0A0   [8]  2C 98 BA A5 60 00 EE D8
  vcan0  500   [6]  FB FB B3 AB 8F 12
  vcan0  0AB   [8]  56 45 8E 8A 34 78 53 7D
  vcan0  500   [6]  BC C0 1B 7B 8D 0A
  vcan0  500   [6]  CC B4 13 AA 06 B2
  vcan0  0A0   [8]  A9 54 21 1F 75 C9 00 CA
  vcan0  0AB   [8]  B7 AF 00 35 49 AA 0F B7
  vcan0  0A5   [8]  0B 68 88 0B CA 8F 1F 5C
  vcan0  381   [4]  D7 06 7B 43
  vcan0  0A9   [8]  D3 61 9A F0 35 AC 63 5E
  vcan0  500   [6]  3D 70 6C 9C 33 9C
  vcan0  0A2   [8]  50 05 7B E7 B8 E0 BB A2
  vcan0  0A2   [8]  EB 50 A0 AE 4F 62 50 13
  vcan0  0AC   [8]  E2 F5 FF A9 A8 20 D4 58
  vcan0  0A9   [8]  38 7A 61 14 7A 77 0F E7
  vcan0  387   [5]  35 10 FF FD 57
  vcan0  387   [5]  20 EB C3 04 A1
  vcan0  0A0   [8]  A0 D5 C6 D8 0A 8C 74 F1
  vcan0  0AC   [8]  01 38 CC 39 38 CE FE 4F
  vcan0  0A5   [8]  97 69 73 08 36 E0 06 9C
  vcan0  0AC   [8]  D5 6C BB BD EB 44 F0 63
  vcan0  0AC   [8]  63 ED 4D 66 AB CC BD 17
  vcan0  0A0   [8]  4C BD A6 74 D8 20 EE ED
  vcan0  387   [5]  09 0E 1E 04 72
  vcan0  500   [6]  29 B1 AC A3 0E E0
  vcan0  381   [4]  61 53 58 4E
  vcan0  387   [5]  11 81 50 05 79
  vcan0  0A5   [8]  D3 4D 4E 0B 14 09 92 9D
  vcan0  0AC   [8]  16 FC C4 15 D8 53 36 0C
  vcan0  0A2   [8]  5A 53 63 32 F1 1A 9B 90
  vcan0  387   [5]  15 D2 4F 02 F0
  vcan0  0A9   [8]  12 7F C1 E3 C6 F5 79 8F
  vcan0  387   [5]  35 58 80 04 5F
  vcan0  0A0   [8]  E4 15 47 2D 98 18 27 A6
  vcan0  500   [6]  67 FD 6A 8D A7 7C
  vcan0  387   [5]  13 88 08 00 CC
  vcan0  387   [5]  10 46 97 04 79
  vcan0  500   [6]  7C 77 6A 89 9A EE
  vcan0  387   [5]  3D 31 0C FC 2A
  vcan0  387   [5]  33 19 6E 03 D1
  vcan0  0A2   [8]  27 66 CD 89 17 44 DB 3D
  vcan0  0A0   [8]  AF 60 9A A9 AF D7 E3 98
  vcan0  0A2   [8]  8D 8A 24 E8 E6 B5 3A 97
  vcan0  0A9   [8]  EB 2A 1E 27 45 7E 58 9E
  vcan0  0A5   [8]  5B 25 30 01 B8 8D 26 3B
  vcan0  0A0   [8]  65 05 AF 1B 2A D7 60 C8
  vcan0  0AC   [8]  CA BE 99 95 2D 47 77 E9
  vcan0  381   [4]  61 1A 0F F5
  vcan0  387   [5]  3B EA 18 01 32
  vcan0  500   [6]  7E ED 31 49 4E F6
  vcan0  387   [5]  1C C1 D5 FF DF
  vcan0  0A9   [8]  81 13 A6 D8 1D 24 F6 3B
  vcan0  500   [6]  20 52 F9 2F 02 C7
  vcan0  0A2   [8]  F7 A9 8D 8A 57 28 95 DB
  vcan0  0A2   [8]  18 5B 9D D6 2C 98 69 37
  vcan0  0AB   [8]  F6 6C A6 C2 2E 37 3D 5F
  vcan0  0A9   [8]  D8 F1 67 9B EC 31 49 AF
  vcan0  0AC   [8]  DE E5 AD 44 15 42 4B 7E
  vcan0  0A9   [8]  E6 96 25 7E 42 B7 2A 5C
  vcan0  0A2   [8]  AA 5A 27 8A 32 27 85 DC
  vcan0  0AC   [8]  2F B7 79 11 65 EB 87 CF
  vcan0  0A9   [8]  28 E4 86 BC 04 94 2D B6
  vcan0  0A5   [8]  4A 2B 94 F6 08 F8 10 03
  vcan0  0AB   [8]  77 0C 2E FF 80 A1 CF 99
  vcan0  0A2   [8]  E9 AD EF 74 12 6E AA 95
  vcan0  0A0   [8]  90 99 69 A0 F4 8D D9 30
  vcan0  0A9   [8]  C0 5F F7 14 64 5F C3 EE
  vcan0  0A9   [8]  EC 79 82 46 E2 2B 64 53
  vcan0  0AC   [8]  AD BC 9F 3B 48 42 89 E1
  vcan0  0A0   [8]  6D A3 8F 8A AC FB DE 16
  vcan0  0A9   [8]  84 AD 24 11 4A 94 66 AE
  vcan0  0AC   [8]  55 70 A3 5C A3 4E 7D 92
  vcan0  381   [4]  38 0E F9 9C
  vcan0  0A2   [8]  56 1E 19 27 EF ED 4A 3B
  vcan0  0A2   [8]  CD F1 FD 4B 40 C3 76 F2
  vcan0  0A0   [8]  64 39 02 27 FD 32 E5 DD
  vcan0  0A0   [8]  08 91 D1 1B 28 80 67 79
  vcan0  0A2   [8]  DA C3 C0 74 88 E3 0E EB
  vcan0  0A0   [8]  3D A1 FD D4 4E 34 B0 56
  vcan0  387   [5]  32 59 9B FD 37
  vcan0  0AB   [8]  6D 82 2C CD 46 93 56 0D
  vcan0  0A0   [8]  A9 46 68 9A 22 EF BF FA
  vcan0  387   [5]  0C 68 6A FD 59
  vcan0  0A9   [8]  56 8C 98 92 5D 0A 12 4B
  vcan0  0A0   [8]  CE 4F 1E 54 B8 AA 61 CF
  vcan0  0AC   [8]  BA F8 9F 06 03 A7 82 34
  vcan0  0AB   [8]  D4 65 5A ED 49 BD 2F 3F
  vcan0  0AB   [8]  4E ED AA 78 5B 8C 37 33
  vcan0  0A0   [8]  6E 01 36 75 4A 3A D0 26
  vcan0  0AB   [8]  F0 4E 47 7E A3 4E 8D 5E
  vcan0  0A0   [8]  1A E4 20 E8 A3 78 C8 3D
  vcan0  0A0   [8]  F2 77 4B 68 69 F5 7A AE
  vcan0  0AC   [8]  05 C4 71 89 F8 6F 62 0D
  vcan0  500   [6]  2D CC B5 89 C7 00
  vcan0  0A9   [8]  78 99 10 BD 6D EF CE 75
  vcan0  0A0   [8]  33 58 50 F4 FC D2 68 74
  vcan0  500   [6]  12 4B 6F 39 F9 04
  vcan0  0A0   [8]  3A 62 FB 81 77 50 15 42
  vcan0  387   [5]  2A F9 66 F9 B1
  vcan0  0A0   [8]  E4 29 FC C9 64 72 B8 EC
  vcan0  500   [6]  B1 73 00 EC 41 07
  vcan0  0AB   [8]  1A 0E D3 E7 0D 79 3D FC
  vcan0  381   [4]  EB 21 A5 D1
  vcan0  387   [5]  3A 04 A0 FF F0
  vcan0  0AB   [8]  94 9F DB 7E E5 0D 77 FB
  vcan0  0AB   [8]  7F FA F1 97 BB C5 2A 9C
  vcan0  0AC   [8]  47 94 E9 1E D8 FD BE BA
  vcan0  0AB   [8]  BC 62 2F 72 E7 B0 05 E3
  vcan0  381   [4]  9A 4D 7F D2
  vcan0  500   [6]  F5 75 14 09 62 38
  vcan0  0A5   [8]  DB 32 90 FE BF 40 3A 11
  vcan0  0A9   [8]  A0 E3 91 26 6D 5A 24 DF
  vcan0  0AB   [8]  13 46 BC CD DF 8C 3B C1
  vcan0  0AC   [8]  0A 78 26 96 4D 7A 55 E5
  vcan0  0AB   [8]  CF E3 D0 61 B2 4F 92 07
  vcan0  0AC   [8]  D7 82 6C 7D 2D 98 8F 85
  vcan0  0AB   [8]  ED A9 C6 B0 71 10 8C 1C
  vcan0  0A0   [8]  34 43 4A 07 BE 52 AC 8E
  vcan0  0AC   [8]  43 34 11 2C 15 0C 16 B2
  vcan0  0AB   [8]  A9 52 69 72 E1 99 1D 6A
  vcan0  0A9   [8]  AD C8 53 0D 21 9E F9 ED
  vcan0  0AB   [8]  0E 88 99 B5 F2 73 B8 BB
  vcan0  381   [4]  38 3A E6 A6
  vcan0  500   [6]  47 71 78 78 CD E0
  vcan0  0A5   [8]  52 38 E1 07 8B 2C 15 E6
  vcan0  0A2   [8]  0D 60 7B 98 C1 EE AF 86
  vcan0  0A5   [8]  4F 12 07 02 F9 C1 95 53
  vcan0  387   [5]  08 AC C5 FE E2
  vcan0  0A0   [8]  91 10 47 B7 DA 6F BE E2
  vcan0  0A0   [8]  11 C5 22 8B 1E 7C AE 21
  vcan0  0A5   [8]  C3 04 25 F9 28 E1 0D D9
  vcan0  0A5   [8]  EF 78 C0 01 C2 68 AE 4D
  vcan0  0A0   [8]  5A E4 D5 FE 78 D5 4D 9A
  vcan0  500   [6]  E5 3D EF 50 24 05
  vcan0  0A0   [8]  A4 8B BF D6 0D 3A A7 45
  vcan0  0A0   [8]  49 DC 06 3C EB D8 45 61
  vcan0  381   [4]  67 05 81 21
  vcan0  500   [6]  22 C8 7C 08 1A 2C
  vcan0  381   [4]  F2 3A E6 65
  vcan0  0A2   [8]  23 9E F4 AE 5C 0A 6E 03
  vcan0  0AB   [8]  4F A4 8D 23 FF F5 0A 15
  vcan0  0A2   [8]  4E 3B F6 A5 96 25 E0 58
  vcan0  381   [4]  DE 58 73 30
  vcan0  500   [6]  5C D4 D1 AE F1 51
  vcan0  0A2   [8]  B2 BC 77 81 90 A6 11 EA
  vcan0  500   [6]  37 BD DD AC FF 27
  vcan0  0AB   [8]  93 9D 43 32 6D 1B 42 FB
  vcan0  0A9   [8]  89 23 0F 27 81 58 95 7E
  vcan0  0A5   [8]  A9 7D AB 09 7D FD 60 CB
  vcan0  0A2   [8]  8F F2 85 F0 DA 50 94 E6
  vcan0  500   [6]  1A AC B6 5C 8D B6
  vcan0  500   [6]  45 EC 02 B4 38 7C
  vcan0  0A2   [8]  F5 C8 35 67 E7 C3 99 BE
  vcan0  0AC   [8]  04 52 3A 99 20 4A 79 62
  vcan0  387   [5]  2D 92 5D FB C1
  vcan0  0A9   [8]  F1 63 23 54 65 05 8E 16
  vcan0  500   [6]  1E 98 D0 8F 6E FA
  vcan0  0AC   [8]  6F 28 F2 12 55 D2 E2 F7
  vcan0  0A0   [8]  53 6A CD E2 45 2B 1E DD
  vcan0  0A0   [8]  62 98 B0 C7 49 D5 DB 10
  vcan0  0A9   [8]  E8 14 D7 56 42 35 0B FC
  vcan0  0A5   [8]  A8 05 5C F4 B3 C1 A8 8F
  vcan0  0A0   [8]  6A 1C F3 60 27 6A B8 93
  vcan0  0A5   [8]  2F 23 AC 02 70 A9 B8 4F
  vcan0  0A9   [8]  EE B4 2E DE 92 8D A7 0B
  vcan0  0A2   [8]  5F B4 02 70 12 2D E2 AE
  vcan0  0A5   [8]  A6 37 15 08 5B 43 05 FE
  vcan0  0A0   [8]  7C E4 D0 CD 98 12 59 6B
  vcan0  0AB   [8]  47 06 22 C0 D8 CE E8 BC
  vcan0  387   [5]  0C 4D C0 FC C2
  vcan0  0AC   [8]  7A 17 04 C2 A0 0D 9A 17
  vcan0  0A0   [8]  64 E8 D6 30 B1 4D DB 46
  vcan0  381   [4]  5B 5C 25 C0
  vcan0  0AB   [8]  27 71 E2 FB 2D 59 2C 97
  vcan0  0A2   [8]  05 82 02 F4 83 3D 7F C3
  vcan0  500   [6]  A2 96 3E F0 2A B7
  vcan0  500   [6]  CA 8A 72 1C 07 8E
  vcan0  381   [4]  A6 3D 6D 4E
  vcan0  0AC   [8]  2B 7B 9D 40 35 2E C8 DB
  vcan0  500   [6]  E5 8D 2A FA 3A A9
  vcan0  500   [6]  B5 19 78 0E 1A 43
  vcan0  387   [5]  21 FF 30 FC B3
  vcan0  0A2   [8]  59 93 CE 8E DA 08 63 09
  vcan0  0A5   [8]  96 65 C8 02 D7 C2 95 C5
  vcan0  0A5   [8]  1A 39 10 F6 A4 93 0C 44
  vcan0  0A2   [8]  42 57 62 12 47 FA 27 A9
  vcan0  0AB   [8]  7D 77 EA D5 64 A5 4C F3
  vcan0  381   [4]  08 2A C0 C4
  vcan0  0A9   [8]  60 69 D2 40 D8 20 90 07
  vcan0  387   [5]  3E D1 6B 00 E9
  vcan0  0AB   [8]  35 5C 14 8D B4 4B 63 2F
  vcan0  0A0   [8]  7E 67 84 87 F3 57 5E 8C
  vcan0  0AB   [8]  5D DC 4D 8C 1E E9 CF E2
  vcan0  0A9   [8]  80 73 C9 B1 17 CF 5C 6F
  vcan0  0A9   [8]  DF 3C 84 D8 D6 2B F7 A1
  vcan0  500   [6]  FB F1 03 5E 2A AD
  vcan0  0A9   [8]  3B D6 98 D0 7B 35 DF FF
  vcan0  500   [6]  D9 93 E6 72 B5 E2
  vcan0  0A5   [8]  E9 7C 4E F5 12 32 ED F9
  vcan0  0A9   [8]  B3 EA 90 DB 86 9A 1D 67
  vcan0  0A2   [8]  D8 56 94 29 A6 EA 33 69
  vcan0  0A5   [8]  50 6A CE 00 13 D0 C8 F6
  vcan0  381   [4]  3C 20 FD CF
  vcan0  0A5   [8]  8E 1B 5A 08 DA 7A 94 AF
  vcan0  0AB   [8]  DD 35 F1 E9 D9 37 DE 1F
  vcan0  387   [5]  0F DF A7 FA 3B
  vcan0  0A5   [8]  43 20 96 07 36 E6 B5 D8
  vcan0  0A9   [8]  D2 FB D5 79 59 49 05 59
  vcan0  0AC   [8]  7C E0 69 5E F8 D7 14 A2
  vcan0  500   [6]  2B 04 28 4D B5 95
  vcan0  0A2   [8]  14 B1 72 70 36 1A 19 CC
  vcan0  0A0   [8]  57 84 20 4A 29 09 8C 10
  vcan0  0AC   [8]  19 58 F0 C0 13 87 3C 53
  vcan0  0AC   [8]  5D 99 7D 7B 0B 96 0F 7E
  vcan0  381   [4]  02 0B 30 1E
  vcan0  0A0   [8]  73 97 FD 11 85 11 19 81
  vcan0  381   [4]  62 37 6B 12
  vcan0  0AB   [8]  9D FB C1 92 C5 6B FA D1
  vcan0  381   [4]  A5 3A A0 9F
  vcan0  0A0   [8]  A5 6A EF 1B 39 05 3A F2
  vcan0  387   [5]  27 CE 0E 03 DD
  vcan0  387   [5]  19 8F DA 05 E0
  vcan0  0A2   [8]  71 29 25 D5 31 E9 C7 6D
  vcan0  381   [4]  E5 48 55 E3
  vcan0  0A9   [8]  F9 29 A6 00 9D 6F F7 F2
  vcan0  500   [6]  C1 2E 21 A0 6C 33
  vcan0  0A5   [8]  05 2C 7F F9 31 13 9B C0
  vcan0  0A2   [8]  E2 6E 9D 44 C4 6B 77 FA
  vcan0  0A9   [8]  1A 7C D2 38 D4 69 7A EA
  vcan0  0AC   [8]  23 E3 60 2A 70 9E DC DC
  vcan0  0AC   [8]  13 FF F8 48 F3 D9 49 B8
  vcan0  0A5   [8]  C7 3B 5C 09 66 37 04 24
  vcan0  0A9   [8]  BD 89 59 B1 BB 98 6B 5D
  vcan0  0A0   [8]  AB E2 FB CC 37 BE 67 9F
  vcan0  0A9   [8]  33 EE 9C 65 E3 28 2A CC
  vcan0  0A9   [8]  84 CC 8A 4E FD 91 8E A4
  vcan0  0AC   [8]  93 30 7C 2B E8 7B 1A 22
  vcan0  0A9   [8]  01 33 AA 2E ED E0 89 07
  vcan0  0A0   [8]  18 40 D4 60 54 D6 C2 50
  vcan0  0A2   [8]  A8 42 53 A1 80 42 88 7D
  vcan0  381   [4]  59 33 C8 80
  vcan0  381   [4]  26 0C 02 60
  vcan0  0A5   [8]  46 6C 4E F9 33 92 35 E2
  vcan0  0AB   [8]  2F 02 9E 17 49 76 85 34
  vcan0  0AC   [8]  F4 A9 CD F2 10 A4 E0 2E
  vcan0  0A5   [8]  03 40 7F 03 50 7F B5 C5
  vcan0  500   [6]  07 CD 61 7B 87 6B
  vcan0  0AC   [8]  C9 D4 5F 04 65 F8 1A 8A
  vcan0  0A2   [8]  F5 7A D3 41 6A C8 39 38
  vcan0  0A2   [8]  D8 75 08 0F 0C 48 CA 65
  vcan0  0A0   [8]  EE EA 5E 69 38 32 2E 0A
  vcan0  381   [4]  3E 5B C2 17
  vcan0  0A9   [8]  BC DF 19 D9 53 44 3F 7A
  vcan0  0A2   [8]  B9 99 5E C2 83 05 53 EC
  vcan0  381   [4]  57 4A B1 ED
  vcan0  0AC   [8]  05 42 93 54 93 43 E2 34
  vcan0  0A2   [8]  00 64 58 EF 0F 1A 7D 36
  vcan0  0A9   [8]  F2 02 85 F3 8A C0 F6 86
  vcan0  0AB   [8]  36 27 82 A2 3D 33 D5 3A
  vcan0  0A2   [8]  D3 76 E1 99 92 FD CB C5
  vcan0  0A2   [8]  EF 25 1E DF 82 08 65 42
  vcan0  500   [6]  EF CC FF 33 3A A1
  vcan0  0A5   [8]  1B 73 97 05 6B EE 3F 04
  vcan0  387   [5]  0F 43 B8 05 66
  vcan0  387   [5]  25 84 EE F8 36
  vcan0  500   [6]  52 68 38 5F 63 A7
  vcan0  0A2   [8]  10 D8 66 A7 18 6B 98 B5
  vcan0  387   [5]  04 E7 63 06 76
  vcan0  500   [6]  B7 55 E7 8B 23 3D
  vcan0  0A9   [8]  4C AB EB 5E BC 91 47 3B
  vcan0  0AB   [8]  7B B3 B3 7F 00 AA 7E D8
  vcan0  0AC   [8]  09 92 81 E7 5B 82 9D D1
  vcan0  0AB   [8]  F8 3D 29 6C C6 09 1D 07
  vcan0  0A2   [8]  A2 07 58 4F 21 D7 CE FE
  vcan0  0AB   [8]  17 48 4B 0E 51 B2 92 1B
  vcan0  500   [6]  73 2F 78 04 89 6A
  vcan0  0A9   [8]  D6 A8 CE FA 69 45 E9 3F
  vcan0  0AB   [8]  93 E0 17 2F 16 58 25 06
  vcan0  0A9   [8]  4A CC 29 46 6F 59 E9 3B
  vcan0  500   [6]  A5 93 38 EA F2 A7
  vcan0  0A0   [8]  D5 1D FF B1 C2 55 63 5A
  vcan0  0AB   [8]  6C 3C 77 A9 FD 5D 61 08
  vcan0  0A2   [8]  44 2F 89 3C 98 EF F4 E0
  vcan0  500   [6]  F8 2D 92 74 6F 07
  vcan0  387   [5]  0A 51 11 06 98
  vcan0  0AB   [8]  47 F8 30 00 4C 01 E5 10
  vcan0  0A5   [8]  31 30 AB 07 0F DD 8D 39
  vcan0  0A2   [8]  BA F6 B1 50 19 54 E2 E4
  vcan0  0A2   [8]  82 78 C2 21 C0 8E F4 20
  vcan0  0AB   [8]  40 66 1C BF FA 71 6A EE
  vcan0  387   [5]  09 11 5B 05 20
  vcan0  387   [5]  28 95 C4 FC 54
  vcan0  387   [5]  07 B8 11 F8 35
  vcan0  387   [5]  0B 3E 69 FB BC
  vcan0  0A5   [8]  C4 0A C2 F8 D6 20 24 23
  vcan0  381   [4]  27 59 8A 64
  vcan0  381   [4]  AC 0F CE D7
  vcan0  0A9   [8]  C9 F6 59 02 6E 4F DC 70
  vcan0  0A5   [8]  C8 5A C9 FE 9D 56 C0 34
  vcan0  0A0   [8]  C9 A2 46 2D 69 5A 71 AA
  vcan0  381   [4]  A4 58 5B 88
  vcan0  0A5   [8]  5F 26 CF 09 E0 B0 2B 0A
  vcan0  0AB   [8]  D8 16 82 57 56 6B 8F 7D
  vcan0  0A9   [8]  AC 51 2B 81 66 7D 15 31
  vcan0  0A2   [8]  66 3F 8E 18 A6 09 BE A8
  vcan0  381   [4]  E8 4F 04 03
  vcan0  387   [5]  32 52 FF FE 7E
  vcan0  0A2   [8]  14 14 39 B2 85 21 60 5D
  vcan0  0A5   [8]  19 3A 42 F9 61 E3 75 31
  vcan0  500   [6]  08 8E D2 27 84 04
  vcan0  0AC   [8]  EB B7 76 0A C5 C1 D1 F4
  vcan0  0A5   [8]  63 6B 48 03 BF A2 7A 56
  vcan0  0A2   [8]  6E 33 18 16 67 DA DE 0A
  vcan0  0AC   [8]  C7 C8 9D 57 D5 A5 F1 F4
  vcan0  0A2   [8]  37 1E 84 E2 8D 9E 45 AB
  vcan0  0AB   [8]  F9 DA C5 95 63 F4 5A 51
  vcan0  0A2   [8]  20 D5 FC 17 49 5D CC CF
  vcan0  0AC   [8]  DD 73 71 D9 15 7F 13 97
  vcan0  0A0   [8]  7F 2E 47 FE CA 34 A5 A1
  vcan0  500   [6]  7C 98 A1 AF 87 27
  vcan0  0AB   [8]  57 A9 F2 3E 2F 28 FF C8
  vcan0  0AB   [8]  73 FC BF 27 4C C5 4A 72
  vcan0  381   [4]  0C 45 E7 01
  vcan0  381   [4]  B3 2E ED D6
  vcan0  387   [5]  01 05 E0 07 E0
  vcan0  381   [4]  70 52 F8 68
  vcan0  0A0   [8]  F2 B2 05 2C 05 B8 2A A0
  vcan0  0AB   [8]  4C 37 D1 07 C9 91 01 25
  vcan0  387   [5]  08 CB 10 05 FF
  vcan0  0A5   [8]  52 21 56 05 6E 47 36 0D
  vcan0  0A0   [8]  03 BA F8 A7 3F 8F 4D 3F
  vcan0  0A9   [8]  9D 72 FB 3B 0F EE AD E2
  vcan0  0A5   [8]  A5 13 4E F5 63 BA A6 68
  vcan0  0AB   [8]  96 66 6F 6A 45 99 07 B0
  vcan0  381   [4]  04 26 7A 31
  vcan0  0AC   [8]  26 C1 7E 10 0D B0 5F 9F
  vcan0  0A2   [8]  B3 20 33 B3 6E 97 4A 78
  vcan0  0A0   [8]  35 95 2F 86 66 1E 56 97
  vcan0  0AC   [8]  3D E5 10 E3 BB 77 66 22
  vcan0  0AC   [8]  26 E2 D6 A2 AB B8 33 F1
  vcan0  0AC   [8]  A2 A9 AC 7A B8 B3 D2 FC
  vcan0  381   [4]  04 22 34 86
  vcan0  0AC   [8]  02 EB E3 02 D8 FE 3F 25
  vcan0  500   [6]  1C 60 FF 94 8E B1
  vcan0  0A5   [8]  EE 62 84 F6 49 0E 66 EF
  vcan0  0AC   [8]  CE 61 E4 A5 7B 39 4F 3F
  vcan0  387   [5]  35 91 66 04 71
  vcan0  0A2   [8]  8F 4C 87 0D 47 E1 A0 C5
  vcan0  381   [4]  60 09 E3 0F
  vcan0  387   [5]  1F F5 72 FC 6A
  vcan0  0A5   [8]  AB 0C 9F F7 2B 33 30 05
  vcan0  387   [5]  22 E1 BE 06 1E
  vcan0  0A5   [8]  B8 4D C8 00 2C 72 E9 2F
  vcan0  0A5   [8]  80 02 F0 03 D9 52 28 34
  vcan0  500   [6]  2D 64 95 51 65 49
  vcan0  387   [5]  3B C9 55 FE 98
  vcan0  0A9   [8]  39 61 67 85 8C 11 1C 5C
  vcan0  0AB   [8]  B5 34 3D 83 F2 2A C6 ED
  vcan0  0A5   [8]  17 02 93 FD 27 98 10 41
  vcan0  387   [5]  24 C5 96 07 11
  vcan0  387   [5]  22 EF EA 01 29
  vcan0  0AB   [8]  A8 87 C4 E1 EA 78 FC D9
  vcan0  387   [5]  1C DC 46 F8 E1
  vcan0  0A0   [8]  70 BA 88 98 7C EF 57 6C
  vcan0  0AC   [8]  4E B2 07 B4 DD 84 CB 07
  vcan0  0A0   [8]  DC 8A 0F 14 18 1D F1 C0
  vcan0  0A0   [8]  6E 7A 17 2B 32 0A 62 82
  vcan0  387   [5]  2A 35 46 FF 9C
  vcan0  0A0   [8]  06 23 E8 A3 2B 13 E2 8D
  vcan0  0AC   [8]  87 53 0D D0 7D F0 69 F3
  vcan0  0A5   [8]  E4 32 20 0C 1A 8B F0 AD
  vcan0  0AC   [8]  23 6B E2 01 35 DE 8C 71
  vcan0  0A2   [8]  67 66 F6 00 28 77 16 EE
  vcan0  387   [5]  08 05 C3 05 F8
  vcan0  0A9   [8]  E7 6A AE 53 C8 3D 9A 31
  vcan0  0A2   [8]  B5 66 54 D3 94 1E D9 EA
  vcan0  0A2   [8]  37 6D D5 6B AB 69 DD 1B
  vcan0  387   [5]  30 11 AE FE 0D
  vcan0  387   [5]  1A 3D C7 FE 50
  vcan0  387   [5]  1A 7C 2F FE 2E
  vcan0  381   [4]  FF 57 59 47
  vcan0  0A9   [8]  BF E3 E3 EC 26 B4 E5 9A
  vcan0  500   [6]  49 25 B7 0E 3A EB
  vcan0  0A9   [8]  AB FA 9C 39 32 00 08 C4
  vcan0  387   [5]  19 43 D9 F9 B3
  vcan0  381   [4]  F7 4F 94 87
  vcan0  0A5   [8]  AB 34 1D FD 3C 25 17 7B
  vcan0  0AC   [8]  FD CB 94 E4 CB C5 CA 6E
  vcan0  0A5   [8]  BC 15 53 F3 E5 6B D9 B1
  vcan0  0A0   [8]  8E 0D 37 5B C8 B1 3E 83
  vcan0  0A5   [8]  9B 60 EA 02 3E C2 20 3B
  vcan0  0A9   [8]  0A F3 CA DC 87 C7 84 83
  vcan0  0AB   [8]  8A 88 83 5C FA 06 F2 C5
  vcan0  0AB   [8]  97 82 7F D5 F6 44 4C BF
  vcan0  0AC   [8]  CF E7 E3 AE D8 99 1C 3F
  vcan0  0A2   [8]  0B 0B 4A 9E 35 FC 87 21
  vcan0  387   [5]  33 C0 A7 06 F3
  vcan0  387   [5]  18 8D CC F8 E1
  vcan0  381   [4]  C5 32 E6 A3
  vcan0  0AC   [8]  57 84 24 75 A8 A0 61 B4
  vcan0  0A5   [8]  C8 3E 5F 09 AF D0 6C 43
  vcan0  381   [4]  6B 01 F1 A4
  vcan0  0A2   [8]  45 16 08 A3 7F 7B 59 5B
  vcan0  0A0   [8]  5C A0 93 97 49 FF 37 E9
  vcan0  0A0   [8]  F8 0F 61 C9 54 B6 A2 87
  vcan0  0A2   [8]  B6 0D 97 57 30 4E B0 51
  vcan0  0A9   [8]  9F 9F 55 A0 13 CD F0 4E
  vcan0  500   [6]  38 1B CF 97 1E BD
  vcan0  381   [4]  F1 02 B3 4D
  vcan0  500   [6]  3B F8 EA 38 EE 20
  vcan0  0A2   [8]  31 D5 67 FF B1 A1 A7 40
  vcan0  0A9   [8]  6D D0 CA FE 26 D3 47 1D
  vcan0  0AB   [8]  01 07 B7 9D 23 C0 1E D2
  vcan0  0A2   [8]  DD 18 2E 5C DB CF 2A 23
  vcan0  387   [5]  38 76 82 02 B4
  vcan0  0AC   [8]  6D AD 18 01 38 84 61 0A
  vcan0  0A2   [8]  48 3C 07 AD B2 F8 D8 DA
  vcan0  0A9   [8]  3A 2C F8 99 67 69 A7 EB
  vcan0  0A0   [8]  CC 6E 3C 03 CF 2B 46 04
  vcan0  0A9   [8]  9D B4 41 5B 9B DA 69 DB
  vcan0  0A9   [8]  0E 2C A0 88 8B 4D 65 68
  vcan0  387   [5]  3C 39 6B FF 31
  vcan0  0A9   [8]  A6 86 BA CB 87 5F CD 82
  vcan0  0A2   [8]  AE 53 F6 E8 F9 6B 0B 88
  vcan0  0AB   [8]  4C 3F 62 C2 64 0A E4 3D
  vcan0  0AB   [8]  C4 E4 00 B7 49 E7 6F 84
  vcan0  0AB   [8]  AA 3C 2D 83 D5 92 BE 65
  vcan0  0AC   [8]  5A 0A BD 22 2B 50 12 CE
  vcan0  0A0   [8]  10 CF 06 61 60 B5 33 78
  vcan0  381   [4]  F9 3A CA D4
  vcan0  0AC   [8]  0B AB A5 81 33 18 0A 6B
  vcan0  0A5   [8]  B1 01 4A 07 99 5B 5B 24
  vcan0  0A2   [8]  C7 06 1F 57 A9 F6 66 25
  vcan0  0A2   [8]  E0 33 A7 5B 7D AB A4 EA
  vcan0  0AB   [8]  0C 22 B8 22 27 96 17 00
  vcan0  0A9   [8]  DD 11 53 95 9F BC 2C AF
  vcan0  0A2   [8]  E8 FA 9F 97 93 56 9E F6
  vcan0  0A9   [8]  FD 82 95 31 E1 38 CB CF
  vcan0  0A5   [8]  F0 5A 00 FB 65 E9 47 00
  vcan0  0AC   [8]  97 E4 B1 06 F3 B7 9C B9
  vcan0  0A2   [8]  D6 1C 65 2F 53 56 DC FE
  vcan0  0AC   [8]  6B 8A 0C 62 70 BD 5D 5B
  vcan0  0A9   [8]  2D C0 B0 3D 4C CD D3 BF
  vcan0  0AB   [8]  2A 34 06 4B 35 28 CA 1B
  vcan0  0AB   [8]  BA 23 0B 20 B1 38 46 C4
  vcan0  0AC   [8]  8F 5D 40 49 1B EB 2C E7
  vcan0  0AB   [8]  80 06 8A 09 4D A9 3C 1A
  vcan0  0A0   [8]  DD 24 9A CB 1F 02 37 81
  vcan0  0A9   [8]  3A 4F 63 56 7F 07 E1 CC
  vcan0  0A2   [8]  CB 70 BB 05 10 5A 32 D2
  vcan0  0A0   [8]  CF 70 C6 CA 71 8D E8 CE
  vcan0  500   [6]  E2 B9 0B 81 96 8D
  vcan0  381   [4]  25 29 A1 C2
  vcan0  0A2   [8]  3C 3C B7 48 6B CC 45 23
  vcan0  0AC   [8]  34 BB 9E BE 35 98 34 CE
  vcan0  500   [6]  8E 77 BF 3B C0 4B
  vcan0  387   [5]  37 9B 5A F8 CE
  vcan0  387   [5]  17 A9 98 FD DB
  vcan0  0AC   [8]  50 3E E5 06 EB CC 76 3C
  vcan0  0AC   [8]  BB 05 7F C4 D3 F8 C2 4A
  vcan0  0A2   [8]  21 13 64 3F 82 2B F9 C6
  vcan0  0AC   [8]  A6 B3 02 63 15 A8 86 1E
  vcan0  0A2   [8]  B8 1C 6C 6C 23 06 D8 F7
  vcan0  0A9   [8]  C1 68 8E D0 30 98 AA CB
  vcan0  0AC   [8]  FA B2 39 F4 70 F9 D8 AD
  vcan0  0AB   [8]  10 3C 83 E1 9C EC 4E CB
  vcan0  381   [4]  58 48 EF 6D
  vcan0  381   [4]  0F 5C 1F A3
  vcan0  0A9   [8]  8D 86 B2 E8 CC FE 25 AD
  vcan0  0A5   [8]  04 20 D9 FA 88 09 40 71
  vcan0  0A2   [8]  BD 7E F2 1B 51 AB 92 7A
  vcan0  381   [4]  9C 15 71 9C
  vcan0  381   [4]  FE 1C 14 81
  vcan0  500   [6]  25 54 AD 28 4E 3F
  vcan0  500   [6]  98 DA 2D 9D 2C F4
  vcan0  0A2   [8]  43 AE 29 93 E9 03 AE 95
  vcan0  0AC   [8]  C2 6A 94 F7 B3 45 F8 E7
  vcan0  381   [4]  2C 64 43 05
  vcan0  381   [4]  6A 26 B6 CB
  vcan0  0A0   [8]  57 E6 D4 77 8B 7C 8B 94
  vcan0  0A0   [8]  D2 BC F2 F0 D9 AC B4 2C
  vcan0  0AC   [8]  B0 B5 BA CB 4B 5E 4C D4
  vcan0  381   [4]  C6 01 45 C7
  vcan0  0AB   [8]  90 85 FE C1 C0 6F FE 63
  vcan0  0A2   [8]  B3 F7 04 D3 13 9D 28 46
  vcan0  0A5   [8]  5F 5D C9 FD 8B AB 8D 03
  vcan0  500   [6]  F7 14 80 30 23 89
  vcan0  0AC   [8]  6D C8 5D AE 78 00 95 33
  vcan0  0AB   [8]  6F 0D 08 34 39 2E 4E 07
  vcan0  0AB   [8]  92 29 33 C4 57 A5 9E 91
  vcan0  0A0   [8]  E9 2F 0C 47 6F 37 4C 32
  vcan0  381   [4]  74 5C EF F3
  vcan0  381   [4]  C5 33 58 BA
  vcan0  0A2   [8]  CF D9 8F F7 C8 DE B4 52
  vcan0  0A5   [8]  8A 04 C4 03 C0 CA EC 2B
  vcan0  0AC   [8]  4C 87 4A 94 30 D7 09 5D
  vcan0  0A0   [8]  47 D4 8E C5 83 DB E5 7C
  vcan0  0A2   [8]  11 48 8A 78 20 11 8F AE
  vcan0  0A9   [8]  E3 07 77 3D 90 EE 5B AC
  vcan0  0A9   [8]  B1 70 CF 28 91 AC 40 50
  vcan0  0A0   [8]  A6 CE 5F EA 2E 4F 40 17
  vcan0  0A0   [8]  05 3B 4C ED B3 F2 6B F4
  vcan0  500   [6]  C4 AC 56 4B 85 10
  vcan0  0A5   [8]  4C 6A E4 02 90 4F F7 B8
  vcan0  0AB   [8]  3C 36 D4 77 F7 B0 C5 14
  vcan0  0A9   [8]  46 C0 0F 8D 81 EE 63 C9
  vcan0  0A2   [8]  B8 AB 1C 96 BC C8 E4 2C
  vcan0  381   [4]  2A 1F 93 A2
  vcan0  0AB   [8]  1B 60 86 FC 84 04 93 70
  vcan0  500   [6]  CE 6A 7E 33 B4 D2
  vcan0  0A5   [8]  37 49 A4 F3 CC 46 EA F8
  vcan0  0A9   [8]  68 27 B2 CE 1E C8 F1 14
  vcan0  387   [5]  2E 4A 7E 01 63
  vcan0  387   [5]  3C 00 F0 07 B4
  vcan0  381   [4]  37 37 E7 DE
  vcan0  387   [5]  22 67 2E 03 7A
  vcan0  500   [6]  9B 71 27 BF 5D 9D
  vcan0  387   [5]  1F 4E E1 FC B1
  vcan0  387   [5]  29 4E 8A 02 F6
  vcan0  387   [5]  02 E2 A8 FA C2
  vcan0  381   [4]  2E 30 03 A3
  vcan0  381   [4]  3F 50 C2 B6
  vcan0  0A5   [8]  D1 31 46 02 54 F1 B8 97
  vcan0  387   [5]  31 75 C1 05 32
  vcan0  0AB   [8]  ED C0 E3 6F BC EE 9E 0B
  vcan0  387   [5]  08 46 27 FA C7
  vcan0  0AC   [8]  97 CF 52 81 65 7B DF 7E
  vcan0  0A9   [8]  BB 22 5C 5B 41 CB 7F 24
  vcan0  500   [6]  8B 28 51 20 9E 90
  vcan0  0A2   [8]  85 8F 86 16 E7 D0 2F 98
  vcan0  0A0   [8]  85 7E 79 56 65 AF 03 13
  vcan0  381   [4]  57 3E 8C 0C
  vcan0  0A5   [8]  17 0D DD 09 DD EF 80 1F
  vcan0  0A0   [8]  3A 98 94 3D A4 F6 39 BB
  vcan0  0AC   [8]  FC 10 5C 83 23 E6 E2 1A
  vcan0  0A2   [8]  E6 94 EC 16 C7 F6 A2 D2
  vcan0  0A0   [8]  CD CB 89 3C 1B C5 3E CF
  vcan0  500   [6]  54 15 50 37 92 59
  vcan0  500   [6]  9C A2 E4 4A AF AD
  vcan0  0AC   [8]  BD F5 45 BD 7B 30 35 CB
  vcan0  0A2   [8]  82 C6 8F 43 57 F0 89 BD
  vcan0  500   [6]  C1 66 36 E5 46 D3
  vcan0  387   [5]  15 8A E8 FC C3
  vcan0  0A9   [8]  A7 80 28 8F 9A F8 1B 98
  vcan0  0A2   [8]  F1 DA 63 C3 60 7B F7 AB
  vcan0  0A5   [8]  20 00 CA 09 DF 5A 1B D6
  vcan0  387   [5]  12 E0 F5 06 33
  vcan0  0A0   [8]  DF 4D 59 B3 C4 79 CF A2
  vcan0  387   [5]  11 67 25 07 14
  vcan0  0A5   [8]  C3 0C 16 07 4E 2E 31 BB
  vcan0  0A2   [8]  26 7F 56 8A F3 58 9A D5
  vcan0  0A5   [8]  2C 7F E9 FE A6 34 B8 33
  vcan0  0AB   [8]  CE 02 AC 79 88 75 E2 DE
  vcan0  500   [6]  1B 1A 3D F4 3B 64
  vcan0  0AC   [8]  42 A6 45 FF DD C5 35 75
  vcan0  500   [6]  75 A2 6F 75 CE 45
  vcan0  0A5   [8]  60 7A AB 04 41 7B B2 A4
  vcan0  0A9   [8]  AF 74 35 3B 3B 34 E7 10
  vcan0  0A2   [8]  4F A1 ED 04 47 AA D2 90
  vcan0  0AB   [8]  1E C8 E1 48 E8 89 AD 07
  vcan0  0A5   [8]  D9 40 5A 09 8B B1 22 9A
  vcan0  0A2   [8]  F4 24 41 71 45 92 79 54
  vcan0  0A9   [8]  E5 3E F6 DD 17 EC 55 3F
  vcan0  381   [4]  BF 29 17 0F
  vcan0  0A9   [8]  36 FE DB 88 6D 8F 0A 3C
  vcan0  500   [6]  1C 29 88 6C C0 D5
  vcan0  0AC   [8]  30 C3 31 15 9B F7 4B 82
  vcan0  0A5   [8]  90 18 3F 05 D7 89 1B F5
  vcan0  0A2   [8]  9D 1F EC C3 26 C5 E9 EC
  vcan0  381   [4]  99 5B F6 2B
  vcan0  381   [4]  66 56 45 9B
  vcan0  0AB   [8]  CF 10 04 76 A4 B1 B9 E0
  vcan0  381   [4]  CF 19 F9 67
  vcan0  0A2   [8]  EA F1 8E 8F 30 47 A9 A6
  vcan0  0A5   [8]  8E 2F 6A 06 FB A1 4E 9A
  vcan0  0A5   [8]  7C 5B 83 FF 44 81 67 72
  vcan0  387   [5]  09 D2 57 00 77
  vcan0  0A2   [8]  81 02 51 56 9E DA 76 8E
  vcan0  0A5   [8]  EC 79 7B 09 0A 48 72 A5
  vcan0  0A2   [8]  C6 FF DC 49 45 3D BA 3F
  vcan0  0A9   [8]  18 12 4E D9 94 2B 78 F5
  vcan0  0A9   [8]  B5 36 32 A9 8A 14 F8 46
  vcan0  0A9   [8]  33 A0 BE 39 A4 13 22 D0
  vcan0  0A9   [8]  6B 77 4D 14 53 05 39 9B
  vcan0  0AB   [8]  70 79 8D 8F D2 E4 48 16
  vcan0  0AB   [8]  A8 0D 59 86 99 DF D0 32
  vcan0  0AB   [8]  64 A9 0B 3C 89 30 2F 77
  vcan0  0A2   [8]  AA 32 F0 E0 B0 70 5F 00
  vcan0  500   [6]  4D 34 43 E2 C0 65
  vcan0  0A0   [8]  53 30 35 A2 C4 4D 78 14
  vcan0  0A5   [8]  0B 40 AD F6 D6 E7 06 9F
  vcan0  0A0   [8]  7E 5A CA 18 17 06 3F B0
  vcan0  0A2   [8]  07 B6 7B 9D 61 37 62 B1
  vcan0  0A5   [8]  F5 15 A4 01 A7 3C BC 5A
  vcan0  0A5   [8]  53 3A 09 01 57 C4 29 FD
  vcan0  0A2   [8]  AA 57 4D 6C E7 2A F9 7A
  vcan0  381   [4]  ED 1F 31 0A
  vcan0  0AC   [8]  B9 CC E3 6D E0 17 C6 EB
  vcan0  387   [5]  3B 0B 14 04 28
  vcan0  500   [6]  E0 C7 B6 E1 AD 55
  vcan0  0A2   [8]  45 83 31 87 8D DB 60 EA
  vcan0  0A5   [8]  00 48 D1 FE 47 03 4A 14
  vcan0  0A9   [8]  BA A3 10 FA 74 63 B6 9B
  vcan0  0AC   [8]  E8 1C 47 06 DD D3 5F 3D
  vcan0  500   [6]  32 7D 99 8E 7D 64
  vcan0  381   [4]  C7 37 1E 58
  vcan0  0A0   [8]  33 D4 21 86 4A 78 2C BE
  vcan0  0AC   [8]  FB E6 58 1C 08 6C D5 BA
  vcan0  0A2   [8]  49 80 19 52 A4 FA 74 9D
  vcan0  387   [5]  2B AD 5B 05 16
  vcan0  0AB   [8]  6A DC D3 0B 37 66 F2 A4
  vcan0  0AC   [8]  3E B4 6A 50 CB EE E9 80
  vcan0  0A5   [8]  CF 54 A5 FD 00 2A 3C B1
  vcan0  0A2   [8]  A1 A5 69 A3 D9 A7 B9 55
  vcan0  0A9   [8]  27 1A 3E 5E 52 93 EB 41
  vcan0  0A0   [8]  5E 99 56 04 50 8B A9 E4
  vcan0  0A9   [8]  04 F2 C9 E7 9F 2E 7C F2
  vcan0  381   [4]  3E 1A 47 75
  vcan0  0AC   [8]  51 63 E9 B9 F0 DC 51 0E
  vcan0  500   [6]  ED 3F 78 3D 33 72
  vcan0  0A0   [8]  ED 4E 98 6B A5 B3 23 7D
  vcan0  0A0   [8]  27 54 1B E9 81 59 98 58
  vcan0  500   [6]  DB 43 13 5A 8B AB
  vcan0  0A9   [8]  FF 80 77 F8 AF EC DF 5E
  vcan0  0A2   [8]  EE C1 67 30 5A D1 2A B1
  vcan0  0AC   [8]  C8 09 7C 71 10 56 6A 2F
  vcan0  0AC   [8]  E2 52 B2 FE 40 E9 CD EE